T4548 17378:373.632   SEGGER J-Link V7.98 Log File
T4548 17378:373.632   DLL Compiled: Jul 17 2024 15:27:15
T4548 17378:373.632   Logging started @ 2025-04-23 02:24
T4548 17378:373.632   Process: C:\Program Files (x86)\Atmel\Studio\7.0\atbackend\atbackend.exe
T4548 17378:373.632 - 6371.949ms
T4548 17378:375.680 JLINK_ExecCommand("Device = ATSAMD21G18A", ...). 
T4548 17378:375.680   Device "ATSAMD21G18A" selected.
T4548 17378:375.680 - 0.422ms returns 0x00
T4548 17378:562.048 JLINK_TIF_Select(JLINKARM_TIF_SWD)
T4548 17378:562.048 - 0.605ms returns 0x00
T4548 17378:562.048 JLINK_SetSpeed(2000)
T4548 17378:562.048 - 0.068ms
T4548 17378:562.048 JLINK_ResetPullsRESET(OFF)
T4548 17378:562.048 - 0.014ms
T4548 17378:564.096 JLINK_Connect()
T4548 17378:564.096   InitTarget() start
T4548 17378:564.096    J-Link Script File: Executing InitTarget()
T4548 17378:564.096   InitTarget()
T4548 17378:566.144   InitTarget() end - Took 2.21ms
T4548 17378:568.192   Found SW-DP with ID 0x0BC11477
T4548 17378:570.240   DPIDR: 0x0BC11477
T4548 17378:570.240   CoreSight SoC-400 or earlier
T4548 17378:570.240   Scanning AP map to find all available APs
T4548 17378:570.240   AP[1]: Stopped AP scan as end of AP map has been reached
T4548 17378:570.240   AP[0]: AHB-AP (IDR: 0x04770031)
T4548 17378:570.240   Iterating through AP map to find AHB-AP to use
T4548 17378:570.240   AP[0]: Core found
T4548 17378:570.240   AP[0]: AHB-AP ROM base: 0x41003000
T4548 17378:570.240   CPUID register: 0x410CC601. Implementer code: 0x41 (ARM)
T4548 17378:570.240   Found Cortex-M0 r0p1, Little endian.
T4548 17378:570.240   -- Max. mem block: 0x00002B08
T4548 17378:572.288   Cortex-M: The connected J-Link (S/N 801056870) uses an old firmware module: V2 (current is 3)
T4548 17378:572.288   CPU_ReadMem(4 bytes @ 0xE000EDF0)
T4548 17378:572.288   CPU_WriteMem(4 bytes @ 0xE000EDF0)
T4548 17378:572.288   CPU_ReadMem(4 bytes @ 0xE0002000)
T4548 17378:572.288   FPUnit: 4 code (BP) slots and 0 literal slots
T4548 17378:572.288   CPU_ReadMem(4 bytes @ 0xE000EDFC)
T4548 17378:572.288   CPU_WriteMem(4 bytes @ 0xE000EDFC)
T4548 17378:574.336   CPU_ReadMem(4 bytes @ 0xE0001000)
T4548 17378:574.336   CPU_WriteMem(4 bytes @ 0xE0001000)
T4548 17378:574.336   CoreSight components:
T4548 17378:574.336   ROMTbl[0] @ 41003000
T4548 17378:574.336   CPU_ReadMem(64 bytes @ 0x41003000)
T4548 17378:576.384   CPU_ReadMem(32 bytes @ 0xE00FFFE0)
T4548 17378:576.384   [0][0]: E00FF000 CID B105100D PID 000BB4C0 ROM Table
T4548 17378:576.384   ROMTbl[1] @ E00FF000
T4548 17378:576.384   CPU_ReadMem(64 bytes @ 0xE00FF000)
T4548 17378:576.384   CPU_ReadMem(32 bytes @ 0xE000EFE0)
T4548 17378:578.432   [1][0]: E000E000 CID B105E00D PID 000BB008 SCS
T4548 17378:578.432   CPU_ReadMem(32 bytes @ 0xE0001FE0)
T4548 17378:578.432   [1][1]: E0001000 CID B105E00D PID 000BB00A DWT
T4548 17378:578.432   CPU_ReadMem(32 bytes @ 0xE0002FE0)
T4548 17378:578.432   [1][2]: E0002000 CID B105E00D PID 000BB00B FPB
T4548 17378:578.432   CPU_ReadMem(32 bytes @ 0x41006FE0)
T4548 17378:578.432   [0][1]: 41006000 CID B105900D PID 001BB932 MTB-M0+
T4548 17378:578.432 - 15.401ms returns 0x00
T4548 17378:578.432 JLINK_ExecCommand("ExcludeFlashCacheRange 0x0 - 0x40000", ...). 
T4548 17378:578.432 - 0.000ms returns 0x00
T4548 17378:578.432 JLINK_Halt()
T4548 17378:582.528 - 3.506ms returns 0x00
T4548 17378:584.576 JLINK_JTAG_GetDeviceID(DeviceIndex = 0)
T4548 17378:584.576 - 0.018ms returns 0
T4548 17378:584.576 JLINK_ReadMemU32(0x41002018, 0x1 Items)
T4548 17378:584.576   CPU_ReadMem(4 bytes @ 0x41002018)
T4548 17378:584.576   Data:  05 03 01 10
T4548 17378:584.576 - 0.361ms returns 1 (0x1)
T1198 17378:594.816 JLINK_IsHalted()
T1198 17378:594.816 - 0.338ms returns TRUE
T1198 17378:594.816 JLINK_GetMOEs(...)
T1198 17378:594.816   CPU_ReadMem(4 bytes @ 0xE000ED30)
T1198 17378:594.816 - 0.314ms returns 0x01
T1198 17378:594.816 JLINK_ReadReg(R15 (PC))
T1198 17378:594.816 - 0.008ms returns 0x000241CC
T4548 17378:609.152 JLINK_BeginDownload(Flags = 0x00000000)
T4548 17378:609.152 - 0.018ms
T4548 17378:609.152 JLINK_WriteMem(0x00000000, 0xDBF8 Bytes, ...)
T4548 17378:609.152   Data:  98 2C 00 20 B5 6C 00 00 AD 6D 00 00 AD 6D 00 00 ...
T4548 17378:609.152   completely In flash
T4548 17378:609.152 - 0.277ms returns 0xDBF8
T4548 17378:609.152 JLINK_WriteMem(0x0000DBF8, 0x94 Bytes, ...)
T4548 17378:609.152   Data:  40 1F 00 00 08 00 00 00 07 01 00 00 30 3A 73 64 ...
T4548 17378:609.152   completely In flash
T4548 17378:609.152 - 0.030ms returns 0x94
T4548 17378:623.488 JLINK_EndDownload()
T4548 17378:623.488    -- --------------------------------------
T4548 17378:623.488    -- Flash bank @ 0x00000000: Default: L2 verify disabled because algorithm performs L1 verify
T4548 17378:623.488    -- Start of determining dirty areas in flash cache
T4548 17378:623.488    -- Filling invalid ranges in sector buffer (flash cache) for sector @ 0x00000000 if necessary
T4548 17378:623.488    -- Filling invalid ranges in sector buffer (flash cache) for sector @ 0x00000100 if necessary
T4548 17378:623.488    -- Filling invalid ranges in sector buffer (flash cache) for sector @ 0x00000200 if necessary
T4548 17378:623.488    -- Filling invalid ranges in sector buffer (flash cache) for sector @ 0x00000300 if necessary
T4548 17378:623.488    -- Filling invalid ranges in sector buffer (flash cache) for sector @ 0x00000400 if necessary
T4548 17378:623.488    -- Filling invalid ranges in sector buffer (flash cache) for sector @ 0x00000500 if necessary
T4548 17378:623.488    -- Filling invalid ranges in sector buffer (flash cache) for sector @ 0x00000600 if necessary
T4548 17378:623.488    -- Filling invalid ranges in sector buffer (flash cache) for sector @ 0x00000700 if necessary
T4548 17378:623.488    -- Filling invalid ranges in sector buffer (flash cache) for sector @ 0x00000800 if necessary
T4548 17378:623.488    -- Filling invalid ranges in sector buffer (flash cache) for sector @ 0x00000900 if necessary
T4548 17378:623.488    -- Filling invalid ranges in sector buffer (flash cache) for sector @ 0x00000A00 if necessary
T4548 17378:623.488    -- Filling invalid ranges in sector buffer (flash cache) for sector @ 0x00000B00 if necessary
T4548 17378:623.488    -- Filling invalid ranges in sector buffer (flash cache) for sector @ 0x00000C00 if necessary
T4548 17378:623.488    -- Filling invalid ranges in sector buffer (flash cache) for sector @ 0x00000D00 if necessary
T4548 17378:623.488    -- Filling invalid ranges in sector buffer (flash cache) for sector @ 0x00000E00 if necessary
T4548 17378:623.488    -- Filling invalid ranges in sector buffer (flash cache) for sector @ 0x00000F00 if necessary
T4548 17378:623.488    -- Filling invalid ranges in sector buffer (flash cache) for sector @ 0x00001000 if necessary
T4548 17378:623.488    -- Filling invalid ranges in sector buffer (flash cache) for sector @ 0x00001100 if necessary
T4548 17378:623.488    -- Filling invalid ranges in sector buffer (flash cache) for sector @ 0x00001200 if necessary
T4548 17378:623.488    -- Filling invalid ranges in sector buffer (flash cache) for sector @ 0x00001300 if necessary
T4548 17378:623.488    -- Filling invalid ranges in sector buffer (flash cache) for sector @ 0x00001400 if necessary
T4548 17378:623.488    -- Filling invalid ranges in sector buffer (flash cache) for sector @ 0x00001500 if necessary
T4548 17378:623.488    -- Filling invalid ranges in sector buffer (flash cache) for sector @ 0x00001600 if necessary
T4548 17378:623.488    -- Filling invalid ranges in sector buffer (flash cache) for sector @ 0x00001700 if necessary
T4548 17378:623.488    -- Filling invalid ranges in sector buffer (flash cache) for sector @ 0x00001800 if necessary
T4548 17378:623.488    -- Filling invalid ranges in sector buffer (flash cache) for sector @ 0x00001900 if necessary
T4548 17378:623.488    -- Filling invalid ranges in sector buffer (flash cache) for sector @ 0x00001A00 if necessary
T4548 17378:623.488    -- Filling invalid ranges in sector buffer (flash cache) for sector @ 0x00001B00 if necessary
T4548 17378:623.488    -- Filling invalid ranges in sector buffer (flash cache) for sector @ 0x00001C00 if necessary
T4548 17378:623.488    -- Filling invalid ranges in sector buffer (flash cache) for sector @ 0x00001D00 if necessary
T4548 17378:623.488    -- Filling invalid ranges in sector buffer (flash cache) for sector @ 0x00001E00 if necessary
T4548 17378:623.488    -- Filling invalid ranges in sector buffer (flash cache) for sector @ 0x00001F00 if necessary
T4548 17378:623.488    -- Filling invalid ranges in sector buffer (flash cache) for sector @ 0x00002000 if necessary
T4548 17378:623.488    -- Filling invalid ranges in sector buffer (flash cache) for sector @ 0x00002100 if necessary
T4548 17378:623.488    -- Filling invalid ranges in sector buffer (flash cache) for sector @ 0x00002200 if necessary
T4548 17378:623.488    -- Filling invalid ranges in sector buffer (flash cache) for sector @ 0x00002300 if necessary
T4548 17378:623.488    -- Filling invalid ranges in sector buffer (flash cache) for sector @ 0x00002400 if necessary
T4548 17378:623.488    -- Filling invalid ranges in sector buffer (flash cache) for sector @ 0x00002500 if necessary
T4548 17378:623.488    -- Filling invalid ranges in sector buffer (flash cache) for sector @ 0x00002600 if necessary
T4548 17378:623.488    -- Filling invalid ranges in sector buffer (flash cache) for sector @ 0x00002700 if necessary
T4548 17378:623.488    -- Filling invalid ranges in sector buffer (flash cache) for sector @ 0x00002800 if necessary
T4548 17378:623.488    -- Filling invalid ranges in sector buffer (flash cache) for sector @ 0x00002900 if necessary
T4548 17378:623.488    -- Filling invalid ranges in sector buffer (flash cache) for sector @ 0x00002A00 if necessary
T4548 17378:623.488    -- Filling invalid ranges in sector buffer (flash cache) for sector @ 0x00002B00 if necessary
T4548 17378:623.488    -- Filling invalid ranges in sector buffer (flash cache) for sector @ 0x00002C00 if necessary
T4548 17378:623.488    -- Filling invalid ranges in sector buffer (flash cache) for sector @ 0x00002D00 if necessary
T4548 17378:623.488    -- Filling invalid ranges in sector buffer (flash cache) for sector @ 0x00002E00 if necessary
T4548 17378:623.488    -- Filling invalid ranges in sector buffer (flash cache) for sector @ 0x00002F00 if necessary
T4548 17378:623.488    -- Filling invalid ranges in sector buffer (flash cache) for sector @ 0x00003000 if necessary
T4548 17378:623.488    -- Filling invalid ranges in sector buffer (flash cache) for sector @ 0x00003100 if necessary
T4548 17378:623.488    -- Filling invalid ranges in sector buffer (flash cache) for sector @ 0x00003200 if necessary
T4548 17378:623.488    -- Filling invalid ranges in sector buffer (flash cache) for sector @ 0x00003300 if necessary
T4548 17378:623.488    -- Filling invalid ranges in sector buffer (flash cache) for sector @ 0x00003400 if necessary
T4548 17378:623.488    -- Filling invalid ranges in sector buffer (flash cache) for sector @ 0x00003500 if necessary
T4548 17378:623.488    -- Filling invalid ranges in sector buffer (flash cache) for sector @ 0x00003600 if necessary
T4548 17378:623.488    -- Filling invalid ranges in sector buffer (flash cache) for sector @ 0x00003700 if necessary
T4548 17378:623.488    -- Filling invalid ranges in sector buffer (flash cache) for sector @ 0x00003800 if necessary
T4548 17378:623.488    -- Filling invalid ranges in sector buffer (flash cache) for sector @ 0x00003900 if necessary
T4548 17378:623.488    -- Filling invalid ranges in sector buffer (flash cache) for sector @ 0x00003A00 if necessary
T4548 17378:623.488    -- Filling invalid ranges in sector buffer (flash cache) for sector @ 0x00003B00 if necessary
T4548 17378:623.488    -- Filling invalid ranges in sector buffer (flash cache) for sector @ 0x00003C00 if necessary
T4548 17378:623.488    -- Filling invalid ranges in sector buffer (flash cache) for sector @ 0x00003D00 if necessary
T4548 17378:623.488    -- Filling invalid ranges in sector buffer (flash cache) for sector @ 0x00003E00 if necessary
T4548 17378:623.488    -- Filling invalid ranges in sector buffer (flash cache) for sector @ 0x00003F00 if necessary
T4548 17378:623.488    -- Filling invalid ranges in sector buffer (flash cache) for sector @ 0x00004000 if necessary
T4548 17378:623.488    -- Filling invalid ranges in sector buffer (flash cache) for sector @ 0x00004100 if necessary
T4548 17378:623.488    -- Filling invalid ranges in sector buffer (flash cache) for sector @ 0x00004200 if necessary
T4548 17378:623.488    -- Filling invalid ranges in sector buffer (flash cache) for sector @ 0x00004300 if necessary
T4548 17378:623.488    -- Filling invalid ranges in sector buffer (flash cache) for sector @ 0x00004400 if necessary
T4548 17378:623.488    -- Filling invalid ranges in sector buffer (flash cache) for sector @ 0x00004500 if necessary
T4548 17378:623.488    -- Filling invalid ranges in sector buffer (flash cache) for sector @ 0x00004600 if necessary
T4548 17378:623.488    -- Filling invalid ranges in sector buffer (flash cache) for sector @ 0x00004700 if necessary
T4548 17378:623.488    -- Filling invalid ranges in sector buffer (flash cache) for sector @ 0x00004800 if necessary
T4548 17378:623.488    -- Filling invalid ranges in sector buffer (flash cache) for sector @ 0x00004900 if necessary
T4548 17378:623.488    -- Filling invalid ranges in sector buffer (flash cache) for sector @ 0x00004A00 if necessary
T4548 17378:623.488    -- Filling invalid ranges in sector buffer (flash cache) for sector @ 0x00004B00 if necessary
T4548 17378:623.488    -- Filling invalid ranges in sector buffer (flash cache) for sector @ 0x00004C00 if necessary
T4548 17378:623.488    -- Filling invalid ranges in sector buffer (flash cache) for sector @ 0x00004D00 if necessary
T4548 17378:623.488    -- Filling invalid ranges in sector buffer (flash cache) for sector @ 0x00004E00 if necessary
T4548 17378:623.488    -- Filling invalid ranges in sector buffer (flash cache) for sector @ 0x00004F00 if necessary
T4548 17378:623.488    -- Filling invalid ranges in sector buffer (flash cache) for sector @ 0x00005000 if necessary
T4548 17378:623.488    -- Filling invalid ranges in sector buffer (flash cache) for sector @ 0x00005100 if necessary
T4548 17378:623.488    -- Filling invalid ranges in sector buffer (flash cache) for sector @ 0x00005200 if necessary
T4548 17378:623.488    -- Filling invalid ranges in sector buffer (flash cache) for sector @ 0x00005300 if necessary
T4548 17378:623.488    -- Filling invalid ranges in sector buffer (flash cache) for sector @ 0x00005400 if necessary
T4548 17378:623.488    -- Filling invalid ranges in sector buffer (flash cache) for sector @ 0x00005500 if necessary
T4548 17378:623.488    -- Filling invalid ranges in sector buffer (flash cache) for sector @ 0x00005600 if necessary
T4548 17378:623.488    -- Filling invalid ranges in sector buffer (flash cache) for sector @ 0x00005700 if necessary
T4548 17378:625.536    -- Filling invalid ranges in sector buffer (flash cache) for sector @ 0x00005800 if necessary
T4548 17378:625.536    -- Filling invalid ranges in sector buffer (flash cache) for sector @ 0x00005900 if necessary
T4548 17378:625.536    -- Filling invalid ranges in sector buffer (flash cache) for sector @ 0x00005A00 if necessary
T4548 17378:625.536    -- Filling invalid ranges in sector buffer (flash cache) for sector @ 0x00005B00 if necessary
T4548 17378:625.536    -- Filling invalid ranges in sector buffer (flash cache) for sector @ 0x00005C00 if necessary
T4548 17378:625.536    -- Filling invalid ranges in sector buffer (flash cache) for sector @ 0x00005D00 if necessary
T4548 17378:625.536    -- Filling invalid ranges in sector buffer (flash cache) for sector @ 0x00005E00 if necessary
T4548 17378:625.536    -- Filling invalid ranges in sector buffer (flash cache) for sector @ 0x00005F00 if necessary
T4548 17378:625.536    -- Filling invalid ranges in sector buffer (flash cache) for sector @ 0x00006000 if necessary
T4548 17378:625.536    -- Filling invalid ranges in sector buffer (flash cache) for sector @ 0x00006100 if necessary
T4548 17378:625.536    -- Filling invalid ranges in sector buffer (flash cache) for sector @ 0x00006200 if necessary
T4548 17378:625.536    -- Filling invalid ranges in sector buffer (flash cache) for sector @ 0x00006300 if necessary
T4548 17378:625.536    -- Filling invalid ranges in sector buffer (flash cache) for sector @ 0x00006400 if necessary
T4548 17378:625.536    -- Filling invalid ranges in sector buffer (flash cache) for sector @ 0x00006500 if necessary
T4548 17378:625.536    -- Filling invalid ranges in sector buffer (flash cache) for sector @ 0x00006600 if necessary
T4548 17378:625.536    -- Filling invalid ranges in sector buffer (flash cache) for sector @ 0x00006700 if necessary
T4548 17378:625.536    -- Filling invalid ranges in sector buffer (flash cache) for sector @ 0x00006800 if necessary
T4548 17378:625.536    -- Filling invalid ranges in sector buffer (flash cache) for sector @ 0x00006900 if necessary
T4548 17378:625.536    -- Filling invalid ranges in sector buffer (flash cache) for sector @ 0x00006A00 if necessary
T4548 17378:625.536    -- Filling invalid ranges in sector buffer (flash cache) for sector @ 0x00006B00 if necessary
T4548 17378:625.536    -- Filling invalid ranges in sector buffer (flash cache) for sector @ 0x00006C00 if necessary
T4548 17378:625.536    -- Filling invalid ranges in sector buffer (flash cache) for sector @ 0x00006D00 if necessary
T4548 17378:625.536    -- Filling invalid ranges in sector buffer (flash cache) for sector @ 0x00006E00 if necessary
T4548 17378:625.536    -- Filling invalid ranges in sector buffer (flash cache) for sector @ 0x00006F00 if necessary
T4548 17378:625.536    -- Filling invalid ranges in sector buffer (flash cache) for sector @ 0x00007000 if necessary
T4548 17378:625.536    -- Filling invalid ranges in sector buffer (flash cache) for sector @ 0x00007100 if necessary
T4548 17378:625.536    -- Filling invalid ranges in sector buffer (flash cache) for sector @ 0x00007200 if necessary
T4548 17378:625.536    -- Filling invalid ranges in sector buffer (flash cache) for sector @ 0x00007300 if necessary
T4548 17378:625.536    -- Filling invalid ranges in sector buffer (flash cache) for sector @ 0x00007400 if necessary
T4548 17378:625.536    -- Filling invalid ranges in sector buffer (flash cache) for sector @ 0x00007500 if necessary
T4548 17378:625.536    -- Filling invalid ranges in sector buffer (flash cache) for sector @ 0x00007600 if necessary
T4548 17378:625.536    -- Filling invalid ranges in sector buffer (flash cache) for sector @ 0x00007700 if necessary
T4548 17378:625.536    -- Filling invalid ranges in sector buffer (flash cache) for sector @ 0x00007800 if necessary
T4548 17378:625.536    -- Filling invalid ranges in sector buffer (flash cache) for sector @ 0x00007900 if necessary
T4548 17378:625.536    -- Filling invalid ranges in sector buffer (flash cache) for sector @ 0x00007A00 if necessary
T4548 17378:625.536    -- Filling invalid ranges in sector buffer (flash cache) for sector @ 0x00007B00 if necessary
T4548 17378:625.536    -- Filling invalid ranges in sector buffer (flash cache) for sector @ 0x00007C00 if necessary
T4548 17378:625.536    -- Filling invalid ranges in sector buffer (flash cache) for sector @ 0x00007D00 if necessary
T4548 17378:625.536    -- Filling invalid ranges in sector buffer (flash cache) for sector @ 0x00007E00 if necessary
T4548 17378:625.536    -- Filling invalid ranges in sector buffer (flash cache) for sector @ 0x00007F00 if necessary
T4548 17378:625.536    -- Filling invalid ranges in sector buffer (flash cache) for sector @ 0x00008000 if necessary
T4548 17378:625.536    -- Filling invalid ranges in sector buffer (flash cache) for sector @ 0x00008100 if necessary
T4548 17378:625.536    -- Filling invalid ranges in sector buffer (flash cache) for sector @ 0x00008200 if necessary
T4548 17378:625.536    -- Filling invalid ranges in sector buffer (flash cache) for sector @ 0x00008300 if necessary
T4548 17378:625.536    -- Filling invalid ranges in sector buffer (flash cache) for sector @ 0x00008400 if necessary
T4548 17378:625.536    -- Filling invalid ranges in sector buffer (flash cache) for sector @ 0x00008500 if necessary
T4548 17378:625.536    -- Filling invalid ranges in sector buffer (flash cache) for sector @ 0x00008600 if necessary
T4548 17378:625.536    -- Filling invalid ranges in sector buffer (flash cache) for sector @ 0x00008700 if necessary
T4548 17378:625.536    -- Filling invalid ranges in sector buffer (flash cache) for sector @ 0x00008800 if necessary
T4548 17378:625.536    -- Filling invalid ranges in sector buffer (flash cache) for sector @ 0x00008900 if necessary
T4548 17378:625.536    -- Filling invalid ranges in sector buffer (flash cache) for sector @ 0x00008A00 if necessary
T4548 17378:625.536    -- Filling invalid ranges in sector buffer (flash cache) for sector @ 0x00008B00 if necessary
T4548 17378:625.536    -- Filling invalid ranges in sector buffer (flash cache) for sector @ 0x00008C00 if necessary
T4548 17378:625.536    -- Filling invalid ranges in sector buffer (flash cache) for sector @ 0x00008D00 if necessary
T4548 17378:625.536    -- Filling invalid ranges in sector buffer (flash cache) for sector @ 0x00008E00 if necessary
T4548 17378:625.536    -- Filling invalid ranges in sector buffer (flash cache) for sector @ 0x00008F00 if necessary
T4548 17378:625.536    -- Filling invalid ranges in sector buffer (flash cache) for sector @ 0x00009000 if necessary
T4548 17378:625.536    -- Filling invalid ranges in sector buffer (flash cache) for sector @ 0x00009100 if necessary
T4548 17378:625.536    -- Filling invalid ranges in sector buffer (flash cache) for sector @ 0x00009200 if necessary
T4548 17378:625.536    -- Filling invalid ranges in sector buffer (flash cache) for sector @ 0x00009300 if necessary
T4548 17378:625.536    -- Filling invalid ranges in sector buffer (flash cache) for sector @ 0x00009400 if necessary
T4548 17378:625.536    -- Filling invalid ranges in sector buffer (flash cache) for sector @ 0x00009500 if necessary
T4548 17378:625.536    -- Filling invalid ranges in sector buffer (flash cache) for sector @ 0x00009600 if necessary
T4548 17378:625.536    -- Filling invalid ranges in sector buffer (flash cache) for sector @ 0x00009700 if necessary
T4548 17378:625.536    -- Filling invalid ranges in sector buffer (flash cache) for sector @ 0x00009800 if necessary
T4548 17378:625.536    -- Filling invalid ranges in sector buffer (flash cache) for sector @ 0x00009900 if necessary
T4548 17378:625.536    -- Filling invalid ranges in sector buffer (flash cache) for sector @ 0x00009A00 if necessary
T4548 17378:625.536    -- Filling invalid ranges in sector buffer (flash cache) for sector @ 0x00009B00 if necessary
T4548 17378:625.536    -- Filling invalid ranges in sector buffer (flash cache) for sector @ 0x00009C00 if necessary
T4548 17378:625.536    -- Filling invalid ranges in sector buffer (flash cache) for sector @ 0x00009D00 if necessary
T4548 17378:625.536    -- Filling invalid ranges in sector buffer (flash cache) for sector @ 0x00009E00 if necessary
T4548 17378:625.536    -- Filling invalid ranges in sector buffer (flash cache) for sector @ 0x00009F00 if necessary
T4548 17378:625.536    -- Filling invalid ranges in sector buffer (flash cache) for sector @ 0x0000A000 if necessary
T4548 17378:625.536    -- Filling invalid ranges in sector buffer (flash cache) for sector @ 0x0000A100 if necessary
T4548 17378:625.536    -- Filling invalid ranges in sector buffer (flash cache) for sector @ 0x0000A200 if necessary
T4548 17378:625.536    -- Filling invalid ranges in sector buffer (flash cache) for sector @ 0x0000A300 if necessary
T4548 17378:625.536    -- Filling invalid ranges in sector buffer (flash cache) for sector @ 0x0000A400 if necessary
T4548 17378:625.536    -- Filling invalid ranges in sector buffer (flash cache) for sector @ 0x0000A500 if necessary
T4548 17378:625.536    -- Filling invalid ranges in sector buffer (flash cache) for sector @ 0x0000A600 if necessary
T4548 17378:625.536    -- Filling invalid ranges in sector buffer (flash cache) for sector @ 0x0000A700 if necessary
T4548 17378:625.536    -- Filling invalid ranges in sector buffer (flash cache) for sector @ 0x0000A800 if necessary
T4548 17378:625.536    -- Filling invalid ranges in sector buffer (flash cache) for sector @ 0x0000A900 if necessary
T4548 17378:625.536    -- Filling invalid ranges in sector buffer (flash cache) for sector @ 0x0000AA00 if necessary
T4548 17378:625.536    -- Filling invalid ranges in sector buffer (flash cache) for sector @ 0x0000AB00 if necessary
T4548 17378:625.536    -- Filling invalid ranges in sector buffer (flash cache) for sector @ 0x0000AC00 if necessary
T4548 17378:625.536    -- Filling invalid ranges in sector buffer (flash cache) for sector @ 0x0000AD00 if necessary
T4548 17378:625.536    -- Filling invalid ranges in sector buffer (flash cache) for sector @ 0x0000AE00 if necessary
T4548 17378:625.536    -- Filling invalid ranges in sector buffer (flash cache) for sector @ 0x0000AF00 if necessary
T4548 17378:625.536    -- Filling invalid ranges in sector buffer (flash cache) for sector @ 0x0000B000 if necessary
T4548 17378:625.536    -- Filling invalid ranges in sector buffer (flash cache) for sector @ 0x0000B100 if necessary
T4548 17378:625.536    -- Filling invalid ranges in sector buffer (flash cache) for sector @ 0x0000B200 if necessary
T4548 17378:625.536    -- Filling invalid ranges in sector buffer (flash cache) for sector @ 0x0000B300 if necessary
T4548 17378:625.536    -- Filling invalid ranges in sector buffer (flash cache) for sector @ 0x0000B400 if necessary
T4548 17378:625.536    -- Filling invalid ranges in sector buffer (flash cache) for sector @ 0x0000B500 if necessary
T4548 17378:625.536    -- Filling invalid ranges in sector buffer (flash cache) for sector @ 0x0000B600 if necessary
T4548 17378:625.536    -- Filling invalid ranges in sector buffer (flash cache) for sector @ 0x0000B700 if necessary
T4548 17378:625.536    -- Filling invalid ranges in sector buffer (flash cache) for sector @ 0x0000B800 if necessary
T4548 17378:625.536    -- Filling invalid ranges in sector buffer (flash cache) for sector @ 0x0000B900 if necessary
T4548 17378:625.536    -- Filling invalid ranges in sector buffer (flash cache) for sector @ 0x0000BA00 if necessary
T4548 17378:625.536    -- Filling invalid ranges in sector buffer (flash cache) for sector @ 0x0000BB00 if necessary
T4548 17378:625.536    -- Filling invalid ranges in sector buffer (flash cache) for sector @ 0x0000BC00 if necessary
T4548 17378:625.536    -- Filling invalid ranges in sector buffer (flash cache) for sector @ 0x0000BD00 if necessary
T4548 17378:625.536    -- Filling invalid ranges in sector buffer (flash cache) for sector @ 0x0000BE00 if necessary
T4548 17378:625.536    -- Filling invalid ranges in sector buffer (flash cache) for sector @ 0x0000BF00 if necessary
T4548 17378:625.536    -- Filling invalid ranges in sector buffer (flash cache) for sector @ 0x0000C000 if necessary
T4548 17378:625.536    -- Filling invalid ranges in sector buffer (flash cache) for sector @ 0x0000C100 if necessary
T4548 17378:625.536    -- Filling invalid ranges in sector buffer (flash cache) for sector @ 0x0000C200 if necessary
T4548 17378:625.536    -- Filling invalid ranges in sector buffer (flash cache) for sector @ 0x0000C300 if necessary
T4548 17378:625.536    -- Filling invalid ranges in sector buffer (flash cache) for sector @ 0x0000C400 if necessary
T4548 17378:625.536    -- Filling invalid ranges in sector buffer (flash cache) for sector @ 0x0000C500 if necessary
T4548 17378:625.536    -- Filling invalid ranges in sector buffer (flash cache) for sector @ 0x0000C600 if necessary
T4548 17378:625.536    -- Filling invalid ranges in sector buffer (flash cache) for sector @ 0x0000C700 if necessary
T4548 17378:625.536    -- Filling invalid ranges in sector buffer (flash cache) for sector @ 0x0000C800 if necessary
T4548 17378:625.536    -- Filling invalid ranges in sector buffer (flash cache) for sector @ 0x0000C900 if necessary
T4548 17378:625.536    -- Filling invalid ranges in sector buffer (flash cache) for sector @ 0x0000CA00 if necessary
T4548 17378:625.536    -- Filling invalid ranges in sector buffer (flash cache) for sector @ 0x0000CB00 if necessary
T4548 17378:625.536    -- Filling invalid ranges in sector buffer (flash cache) for sector @ 0x0000CC00 if necessary
T4548 17378:625.536    -- Filling invalid ranges in sector buffer (flash cache) for sector @ 0x0000CD00 if necessary
T4548 17378:625.536    -- Filling invalid ranges in sector buffer (flash cache) for sector @ 0x0000CE00 if necessary
T4548 17378:625.536    -- Filling invalid ranges in sector buffer (flash cache) for sector @ 0x0000CF00 if necessary
T4548 17378:625.536    -- Filling invalid ranges in sector buffer (flash cache) for sector @ 0x0000D000 if necessary
T4548 17378:625.536    -- Filling invalid ranges in sector buffer (flash cache) for sector @ 0x0000D100 if necessary
T4548 17378:625.536    -- Filling invalid ranges in sector buffer (flash cache) for sector @ 0x0000D200 if necessary
T4548 17378:625.536    -- Filling invalid ranges in sector buffer (flash cache) for sector @ 0x0000D300 if necessary
T4548 17378:627.584    -- Filling invalid ranges in sector buffer (flash cache) for sector @ 0x0000D400 if necessary
T4548 17378:627.584    -- Filling invalid ranges in sector buffer (flash cache) for sector @ 0x0000D500 if necessary
T4548 17378:627.584    -- Filling invalid ranges in sector buffer (flash cache) for sector @ 0x0000D600 if necessary
T4548 17378:627.584    -- Filling invalid ranges in sector buffer (flash cache) for sector @ 0x0000D700 if necessary
T4548 17378:627.584    -- Filling invalid ranges in sector buffer (flash cache) for sector @ 0x0000D800 if necessary
T4548 17378:627.584    -- Filling invalid ranges in sector buffer (flash cache) for sector @ 0x0000D900 if necessary
T4548 17378:627.584    -- Filling invalid ranges in sector buffer (flash cache) for sector @ 0x0000DA00 if necessary
T4548 17378:627.584    -- Filling invalid ranges in sector buffer (flash cache) for sector @ 0x0000DB00 if necessary
T4548 17378:627.584    -- Filling invalid ranges in sector buffer (flash cache) for sector @ 0x0000DC00 if necessary
T4548 17378:627.584    -- End of determining dirty areas
T4548 17378:627.584    -- Start of preparing flash programming
T4548 17378:627.584    -- Calculating RAM usage
T4548 17378:627.584    -- RAM usage = 3908 Bytes
T4548 17378:627.584    -- Preserving CPU registers
T4548 17378:627.584    -- Preparing target
T4548 17378:627.584    -- Preserving target RAM temporarily used for programming
T4548 17378:654.208    -- Downloading RAMCode
T4548 17378:676.736    -- Preparing RAMCode
T4548 17378:682.880    -- End of preparing flash programming
T4548 17378:684.928    -- CPU speed could not be measured.
T4548 17378:684.928    -- Start of comparing flash
T4548 17378:684.928    -- CRC check was estimated as fastest method
T4548 17378:697.216    -- Comparing range 0x0000 - 0x7FFF (128 Sectors, 32 KB), using multi-block CRC calculation
T4548 17378:729.984    -- All CRCs match
T4548 17378:729.984    -- Comparing range 0x8000 - 0xDCFF (93 Sectors, 23 KB), using multi-block CRC calculation
T4548 17378:752.512    -- All CRCs match
T4548 17378:752.512    -- Comparing range 0x0000 - 0x7FFF (128 Sectors, 32 KB), using alternative multi-block CRC calculation
T4548 17378:783.232    -- All CRCs match
T4548 17378:783.232    -- Comparing range 0x8000 - 0xDCFF (93 Sectors, 23 KB), using alternative multi-block CRC calculation
T4548 17378:807.808    -- All CRCs match
T4548 17378:807.808    -- End of comparing flash
T4548 17378:807.808    -- Start of erasing sectors
T4548 17378:807.808    -- End of erasing sectors
T4548 17378:807.808    -- Start of flash programming
T4548 17378:807.808    -- End of flash programming
T4548 17378:807.808    -- Start of restoring
T4548 17378:807.808    -- Restoring RAMCode
T4548 17378:811.904    -- Restoring target memory
T4548 17378:840.576    -- Restore target
T4548 17378:840.576    -- Restoring CPU registers
T4548 17378:840.576    -- End of restoring
T4548 17378:840.576    -- Bank 0 @ 0x00000000: Skipped. Contents already match
T4548 17378:840.576    -- Bank 0 @ 0x00000000: Skipped. Contents already match
T4548 17378:842.624 - 219.278ms returns 0 (0x0)
T4548 17378:842.624 JLINK_SetResetType(JLINKARM_CM3_RESET_TYPE_NORMAL)
T4548 17378:842.624 - 0.027ms returns JLINKARM_CM3_RESET_TYPE_NORMAL
T4548 17378:842.624 JLINK_Reset()
T4548 17378:842.624   CPU_ReadMem(4 bytes @ 0x20000000)
T4548 17378:842.624   CPU_WriteMem(4 bytes @ 0x20000000)
T4548 17378:842.624   ResetTarget() start
T4548 17378:842.624    J-Link Script File: Executing ResetTarget()
T4548 17378:842.624   CPU_ReadMem(4 bytes @ 0xE000EDFC)
T4548 17378:844.672   CPU_WriteMem(4 bytes @ 0xE000EDFC)
T4548 17378:844.672   CPU_WriteMem(4 bytes @ 0xE000ED0C)
T4548 17378:846.720   CPU_ReadMem(4 bytes @ 0xE000EDF0)
T4548 17378:846.720   CPU_ReadMem(4 bytes @ 0x41002100)
T4548 17378:846.720   CPU_WriteMem(4 bytes @ 0xE000EDFC)
T4548 17378:848.768   ResetTarget() end - Took 3.48ms
T4548 17378:850.816   CPU_WriteMem(4 bytes @ 0xE0002000)
T4548 17378:850.816   CPU_ReadMem(4 bytes @ 0xE000EDFC)
T4548 17378:850.816   CPU_ReadMem(4 bytes @ 0xE0001000)
T4548 17378:852.864   CPU_WriteMem(4 bytes @ 0xE0001000)
T4548 17378:852.864 - 9.673ms
T4504 17378:969.600 JLINK_Halt()
T4504 17378:969.600 - 0.013ms returns 0x00
T4504 17378:969.600 JLINK_ReadReg(R15 (PC))
T4504 17378:969.600 - 0.007ms returns 0x00006CB4
T4504 17378:969.600 JLINK_ReadReg(R13 (SP))
T4504 17378:969.600 - 0.007ms returns 0x20002C98
T4504 17378:973.696 JLINK_ReadMemHW(0x00006CB4, 0x0004 Bytes, ...)
T4504 17378:973.696   CPU_ReadMem(4 bytes @ 0x00006CB4)
T4504 17378:973.696   Data:  80 B5 82 B0
T4504 17378:973.696 - 0.375ms returns 0
T4504 17378:973.696 JLINK_ReadReg(R0)
T4504 17378:973.696 - 0.010ms returns 0x40001000
T4504 17378:973.696 JLINK_ReadReg(R1)
T4504 17378:973.696 - 0.005ms returns 0x00000000
T4504 17378:973.696 JLINK_ReadReg(R2)
T4504 17378:973.696 - 0.005ms returns 0x00000000
T4504 17378:973.696 JLINK_ReadReg(R3)
T4504 17378:973.696 - 0.005ms returns 0x00000000
T4504 17378:973.696 JLINK_ReadReg(R4)
T4504 17378:973.696 - 0.005ms returns 0x200006B4
T4504 17378:973.696 JLINK_ReadReg(R5)
T4504 17378:973.696 - 0.005ms returns 0x200006D4
T4504 17378:973.696 JLINK_ReadReg(R6)
T4504 17378:973.696 - 0.005ms returns 0x200006D4
T4504 17378:973.696 JLINK_ReadReg(R7)
T4504 17378:973.696 - 0.005ms returns 0x20003498
T4504 17378:973.696 JLINK_ReadReg(R8)
T4504 17378:973.696 - 0.005ms returns 0xA5A5A5A5
T4504 17378:973.696 JLINK_ReadReg(R9)
T4504 17378:973.696 - 0.005ms returns 0xA5A5A5A5
T4504 17378:973.696 JLINK_ReadReg(R10)
T4504 17378:973.696 - 0.005ms returns 0xA5A5A5A5
T4504 17378:973.696 JLINK_ReadReg(R11)
T4504 17378:973.696 - 0.005ms returns 0xA5A5A5A5
T4504 17378:973.696 JLINK_ReadReg(R12)
T4504 17378:973.696 - 0.005ms returns 0x20000638
T4504 17378:973.696 JLINK_ReadReg(R13 (SP))
T4504 17378:973.696 - 0.005ms returns 0x20002C98
T4504 17378:973.696 JLINK_ReadReg(R14)
T4504 17378:973.696 - 0.005ms returns 0x20000341
T4504 17378:973.696 JLINK_ReadReg(R15 (PC))
T4504 17378:973.696 - 0.005ms returns 0x00006CB4
T4504 17378:973.696 JLINK_ReadReg(XPSR)
T4504 17378:973.696 - 0.005ms returns 0x21000000
T4504 17378:973.696 JLINK_ReadReg(MSP)
T4504 17378:973.696 - 0.004ms returns 0x20002C98
T4504 17378:973.696 JLINK_ReadReg(PSP)
T4504 17378:973.696 - 0.005ms returns 0x200006A8
T4504 17378:973.696 JLINK_ReadReg(PRIMASK)
T4504 17378:973.696 - 0.005ms returns 0x00000000
T4504 17378:973.696 JLINK_ReadReg(BASEPRI)
T4504 17378:973.696 - 0.005ms returns 0x00000000
T4504 17378:973.696 JLINK_ReadReg(FAULTMASK)
T4504 17378:973.696 - 0.005ms returns 0x00000000
T4504 17378:973.696 JLINK_ReadReg(CONTROL)
T4504 17378:973.696 - 0.005ms returns 0x00000000
T4504 17378:973.696 JLINK_ReadMemHW(0x00006CB4, 0x0002 Bytes, ...)
T4504 17378:973.696   CPU_ReadMem(2 bytes @ 0x00006CB4)
T4504 17378:973.696   Data:  80 B5
T4504 17378:973.696 - 0.379ms returns 0
T1198 17379:000.320 JLINK_IsHalted()
T1198 17379:000.320 - 0.014ms returns TRUE
T4504 17379:004.416 JLINK_ReadReg(R0)
T4504 17379:004.416 - 0.011ms returns 0x40001000
T4504 17379:004.416 JLINK_ReadReg(R1)
T4504 17379:004.416 - 0.004ms returns 0x00000000
T4504 17379:004.416 JLINK_ReadReg(R2)
T4504 17379:004.416 - 0.004ms returns 0x00000000
T4504 17379:004.416 JLINK_ReadReg(R3)
T4504 17379:004.416 - 0.005ms returns 0x00000000
T4504 17379:004.416 JLINK_ReadReg(R4)
T4504 17379:004.416 - 0.005ms returns 0x200006B4
T4504 17379:006.464 JLINK_ReadReg(R5)
T4504 17379:006.464 - 0.004ms returns 0x200006D4
T4504 17379:006.464 JLINK_ReadReg(R6)
T4504 17379:006.464 - 0.004ms returns 0x200006D4
T4504 17379:006.464 JLINK_ReadReg(R7)
T4504 17379:006.464 - 0.004ms returns 0x20003498
T4504 17379:006.464 JLINK_ReadReg(R8)
T4504 17379:006.464 - 0.005ms returns 0xA5A5A5A5
T4504 17379:006.464 JLINK_ReadReg(R9)
T4504 17379:006.464 - 0.004ms returns 0xA5A5A5A5
T4504 17379:006.464 JLINK_ReadReg(R10)
T4504 17379:006.464 - 0.004ms returns 0xA5A5A5A5
T4504 17379:006.464 JLINK_ReadReg(R11)
T4504 17379:006.464 - 0.004ms returns 0xA5A5A5A5
T4504 17379:006.464 JLINK_ReadReg(R12)
T4504 17379:006.464 - 0.004ms returns 0x20000638
T4504 17379:006.464 JLINK_ReadReg(R13 (SP))
T4504 17379:006.464 - 0.005ms returns 0x20002C98
T4504 17379:006.464 JLINK_ReadReg(R14)
T4504 17379:006.464 - 0.004ms returns 0x20000341
T4504 17379:006.464 JLINK_ReadReg(R15 (PC))
T4504 17379:006.464 - 0.005ms returns 0x00006CB4
T4504 17379:006.464 JLINK_ReadReg(XPSR)
T4504 17379:006.464 - 0.005ms returns 0x21000000
T4504 17379:006.464 JLINK_ReadReg(MSP)
T4504 17379:006.464 - 0.004ms returns 0x20002C98
T4504 17379:006.464 JLINK_ReadReg(PSP)
T4504 17379:006.464 - 0.004ms returns 0x200006A8
T4504 17379:006.464 JLINK_ReadReg(PRIMASK)
T4504 17379:006.464 - 0.005ms returns 0x00000000
T4504 17379:006.464 JLINK_ReadReg(BASEPRI)
T4504 17379:006.464 - 0.005ms returns 0x00000000
T4504 17379:006.464 JLINK_ReadReg(FAULTMASK)
T4504 17379:006.464 - 0.004ms returns 0x00000000
T4504 17379:006.464 JLINK_ReadReg(CONTROL)
T4504 17379:006.464 - 0.004ms returns 0x00000000
T4504 17379:012.608 JLINK_ReadMemHW(0x00006CB4, 0x0004 Bytes, ...)
T4504 17379:012.608   CPU_ReadMem(4 bytes @ 0x00006CB4)
T4504 17379:012.608   Data:  80 B5 82 B0
T4504 17379:012.608 - 0.413ms returns 0
T4504 17379:065.856 JLINK_SetResetType(JLINKARM_CM3_RESET_TYPE_NORMAL)
T4504 17379:065.856 - 0.014ms returns JLINKARM_CM3_RESET_TYPE_NORMAL
T4504 17379:065.856 JLINK_Reset()
T4504 17379:065.856   ResetTarget() start
T4504 17379:065.856    J-Link Script File: Executing ResetTarget()
T4504 17379:065.856   CPU_ReadMem(4 bytes @ 0xE000EDFC)
T4504 17379:067.904   CPU_WriteMem(4 bytes @ 0xE000EDFC)
T4504 17379:067.904   CPU_WriteMem(4 bytes @ 0xE000ED0C)
T4504 17379:069.952   CPU_ReadMem(4 bytes @ 0xE000EDF0)
T4504 17379:069.952   CPU_ReadMem(4 bytes @ 0x41002100)
T4504 17379:069.952   CPU_WriteMem(4 bytes @ 0xE000EDFC)
T4504 17379:069.952   ResetTarget() end - Took 3.93ms
T4504 17379:074.048   CPU_WriteMem(4 bytes @ 0xE0002000)
T4504 17379:074.048   CPU_ReadMem(4 bytes @ 0xE000EDFC)
T4504 17379:076.096   CPU_ReadMem(4 bytes @ 0xE0001000)
T4504 17379:076.096   CPU_WriteMem(4 bytes @ 0xE0001000)
T4504 17379:076.096 - 9.523ms
T1198 17379:076.096 JLINK_IsHalted()
T1198 17379:076.096 - 0.010ms returns TRUE
T1198 17379:076.096 JLINK_GetMOEs(...)
T1198 17379:076.096   CPU_ReadMem(4 bytes @ 0xE000ED30)
T1198 17379:078.144 - 0.360ms returns 0x01
T1198 17379:078.144 JLINK_ReadReg(R15 (PC))
T1198 17379:078.144 - 0.006ms returns 0x00006CB4
T4504 17379:086.336 JLINK_ReadReg(R15 (PC))
T4504 17379:086.336 - 0.010ms returns 0x00006CB4
T4504 17379:086.336 JLINK_ReadReg(R13 (SP))
T4504 17379:086.336 - 0.005ms returns 0x20002C98
T4504 17379:086.336 JLINK_ReadMemHW(0x00006CB4, 0x0004 Bytes, ...)
T4504 17379:086.336   CPU_ReadMem(4 bytes @ 0x00006CB4)
T4504 17379:086.336   Data:  80 B5 82 B0
T4504 17379:086.336 - 0.433ms returns 0
T4504 17379:112.960 JLINK_ReadReg(R0)
T4504 17379:112.960 - 0.013ms returns 0x40001000
T4504 17379:112.960 JLINK_ReadReg(R1)
T4504 17379:112.960 - 0.005ms returns 0x00000000
T4504 17379:112.960 JLINK_ReadReg(R2)
T4504 17379:112.960 - 0.005ms returns 0x00000000
T4504 17379:112.960 JLINK_ReadReg(R3)
T4504 17379:112.960 - 0.004ms returns 0x00000000
T4504 17379:112.960 JLINK_ReadReg(R4)
T4504 17379:112.960 - 0.005ms returns 0x200006B4
T4504 17379:112.960 JLINK_ReadReg(R5)
T4504 17379:112.960 - 0.005ms returns 0x200006D4
T4504 17379:112.960 JLINK_ReadReg(R6)
T4504 17379:112.960 - 0.005ms returns 0x200006D4
T4504 17379:112.960 JLINK_ReadReg(R7)
T4504 17379:112.960 - 0.004ms returns 0x20003498
T4504 17379:112.960 JLINK_ReadReg(R8)
T4504 17379:112.960 - 0.004ms returns 0xA5A5A5A5
T4504 17379:112.960 JLINK_ReadReg(R9)
T4504 17379:112.960 - 0.005ms returns 0xA5A5A5A5
T4504 17379:112.960 JLINK_ReadReg(R10)
T4504 17379:112.960 - 0.004ms returns 0xA5A5A5A5
T4504 17379:112.960 JLINK_ReadReg(R11)
T4504 17379:112.960 - 0.004ms returns 0xA5A5A5A5
T4504 17379:112.960 JLINK_ReadReg(R12)
T4504 17379:112.960 - 0.005ms returns 0x20000638
T4504 17379:112.960 JLINK_ReadReg(R13 (SP))
T4504 17379:112.960 - 0.005ms returns 0x20002C98
T4504 17379:112.960 JLINK_ReadReg(R14)
T4504 17379:112.960 - 0.005ms returns 0x20000341
T4504 17379:112.960 JLINK_ReadReg(R15 (PC))
T4504 17379:112.960 - 0.005ms returns 0x00006CB4
T4504 17379:112.960 JLINK_ReadReg(XPSR)
T4504 17379:112.960 - 0.005ms returns 0x21000000
T4504 17379:112.960 JLINK_ReadReg(MSP)
T4504 17379:112.960 - 0.004ms returns 0x20002C98
T4504 17379:112.960 JLINK_ReadReg(PSP)
T4504 17379:112.960 - 0.004ms returns 0x200006A8
T4504 17379:112.960 JLINK_ReadReg(PRIMASK)
T4504 17379:112.960 - 0.004ms returns 0x00000000
T4504 17379:112.960 JLINK_ReadReg(BASEPRI)
T4504 17379:112.960 - 0.005ms returns 0x00000000
T4504 17379:112.960 JLINK_ReadReg(FAULTMASK)
T4504 17379:112.960 - 0.005ms returns 0x00000000
T4504 17379:112.960 JLINK_ReadReg(CONTROL)
T4504 17379:112.960 - 0.004ms returns 0x00000000
T4504 17379:112.960 JLINK_ReadMem(0x20000340, 0x4 Bytes, ...)
T4504 17379:112.960   CPU_ReadMem(64 bytes @ 0x20000340)
T4504 17379:115.008    -- Updating C cache (64 bytes @ 0x20000340)
T4504 17379:115.008    -- Read from C cache (4 bytes @ 0x20000340)
T4504 17379:115.008   Data:  00 00 00 00
T4504 17379:115.008 - 1.174ms returns 0
T4504 17379:115.008 JLINK_ReadMem(0x200001C8, 0x2 Bytes, ...)
T4504 17379:115.008   CPU_ReadMem(64 bytes @ 0x200001C0)
T4504 17379:117.056    -- Updating C cache (64 bytes @ 0x200001C0)
T4504 17379:117.056    -- Read from C cache (2 bytes @ 0x200001C8)
T4504 17379:117.056   Data:  00 00
T4504 17379:117.056 - 1.216ms returns 0
T4504 17379:117.056 JLINK_ReadMem(0x200001CA, 0x2 Bytes, ...)
T4504 17379:117.056    -- Read from C cache (2 bytes @ 0x200001CA)
T4504 17379:117.056   Data:  00 00
T4504 17379:117.056 - 0.026ms returns 0
T4504 17379:117.056 JLINK_ReadMem(0x200001CC, 0x2 Bytes, ...)
T4504 17379:117.056    -- Read from C cache (2 bytes @ 0x200001CC)
T4504 17379:117.056   Data:  00 00
T4504 17379:117.056 - 0.048ms returns 0
T4504 17379:117.056 JLINK_ReadMem(0x200001CE, 0x2 Bytes, ...)
T4504 17379:117.056    -- Read from C cache (2 bytes @ 0x200001CE)
T4504 17379:117.056   Data:  00 00
T4504 17379:117.056 - 0.025ms returns 0
T4504 17379:117.056 JLINK_ReadMem(0x200001D0, 0x2 Bytes, ...)
T4504 17379:117.056    -- Read from C cache (2 bytes @ 0x200001D0)
T4504 17379:117.056   Data:  00 00
T4504 17379:117.056 - 0.023ms returns 0
T4504 17379:119.104 JLINK_ReadMem(0x200001D2, 0x2 Bytes, ...)
T4504 17379:119.104    -- Read from C cache (2 bytes @ 0x200001D2)
T4504 17379:119.104   Data:  00 00
T4504 17379:119.104 - 0.026ms returns 0
T4504 17379:119.104 JLINK_ReadMem(0x200001D4, 0x2 Bytes, ...)
T4504 17379:119.104    -- Read from C cache (2 bytes @ 0x200001D4)
T4504 17379:119.104   Data:  43 00
T4504 17379:119.104 - 0.050ms returns 0
T4504 17379:119.104 JLINK_ReadMem(0x200001D6, 0x2 Bytes, ...)
T4504 17379:119.104    -- Read from C cache (2 bytes @ 0x200001D6)
T4504 17379:119.104   Data:  00 00
T4504 17379:119.104 - 0.029ms returns 0
T4504 17379:119.104 JLINK_ReadMem(0x200001D8, 0x2 Bytes, ...)
T4504 17379:119.104    -- Read from C cache (2 bytes @ 0x200001D8)
T4504 17379:119.104   Data:  00 00
T4504 17379:119.104 - 0.026ms returns 0
T4504 17379:119.104 JLINK_ReadMem(0x200001DA, 0x2 Bytes, ...)
T4504 17379:119.104    -- Read from C cache (2 bytes @ 0x200001DA)
T4504 17379:119.104   Data:  00 00
T4504 17379:119.104 - 0.023ms returns 0
T4504 17379:119.104 JLINK_ReadMem(0x200001DC, 0x2 Bytes, ...)
T4504 17379:119.104    -- Read from C cache (2 bytes @ 0x200001DC)
T4504 17379:119.104   Data:  00 00
T4504 17379:119.104 - 0.023ms returns 0
T4504 17379:119.104 JLINK_ReadMem(0x200001DE, 0x2 Bytes, ...)
T4504 17379:119.104    -- Read from C cache (2 bytes @ 0x200001DE)
T4504 17379:119.104   Data:  00 00
T4504 17379:119.104 - 0.023ms returns 0
T4504 17379:119.104 JLINK_ReadMem(0x200001E0, 0x2 Bytes, ...)
T4504 17379:119.104    -- Read from C cache (2 bytes @ 0x200001E0)
T4504 17379:119.104   Data:  00 00
T4504 17379:119.104 - 0.048ms returns 0
T4504 17379:119.104 JLINK_ReadMem(0x200001E2, 0x2 Bytes, ...)
T4504 17379:119.104    -- Read from C cache (2 bytes @ 0x200001E2)
T4504 17379:119.104   Data:  00 00
T4504 17379:119.104 - 0.067ms returns 0
T4504 17379:119.104 JLINK_ReadMem(0x200001E4, 0x2 Bytes, ...)
T4504 17379:119.104    -- Read from C cache (2 bytes @ 0x200001E4)
T4504 17379:119.104   Data:  00 00
T4504 17379:119.104 - 0.023ms returns 0
T4504 17379:119.104 JLINK_ReadMem(0x200001E6, 0x2 Bytes, ...)
T4504 17379:119.104    -- Read from C cache (2 bytes @ 0x200001E6)
T4504 17379:119.104   Data:  00 00
T4504 17379:119.104 - 0.023ms returns 0
T4504 17379:119.104 JLINK_ReadMem(0x200001E8, 0x2 Bytes, ...)
T4504 17379:119.104    -- Read from C cache (2 bytes @ 0x200001E8)
T4504 17379:119.104   Data:  00 00
T4504 17379:119.104 - 0.042ms returns 0
T4504 17379:119.104 JLINK_ReadMem(0x200001EA, 0x2 Bytes, ...)
T4504 17379:119.104    -- Read from C cache (2 bytes @ 0x200001EA)
T4504 17379:119.104   Data:  00 00
T4504 17379:119.104 - 0.023ms returns 0
T4504 17379:119.104 JLINK_ReadMem(0x200001EC, 0x2 Bytes, ...)
T4504 17379:119.104    -- Read from C cache (2 bytes @ 0x200001EC)
T4504 17379:119.104   Data:  00 00
T4504 17379:119.104 - 0.043ms returns 0
T4504 17379:119.104 JLINK_ReadMem(0x200001EE, 0x2 Bytes, ...)
T4504 17379:119.104    -- Read from C cache (2 bytes @ 0x200001EE)
T4504 17379:119.104   Data:  00 00
T4504 17379:119.104 - 0.023ms returns 0
T4504 17379:119.104 JLINK_ReadMem(0x200001F0, 0x2 Bytes, ...)
T4504 17379:119.104    -- Read from C cache (2 bytes @ 0x200001F0)
T4504 17379:119.104   Data:  00 00
T4504 17379:119.104 - 0.023ms returns 0
T4504 17379:119.104 JLINK_ReadMem(0x200001F2, 0x2 Bytes, ...)
T4504 17379:119.104    -- Read from C cache (2 bytes @ 0x200001F2)
T4504 17379:119.104   Data:  00 00
T4504 17379:119.104 - 0.042ms returns 0
T4504 17379:119.104 JLINK_ReadMem(0x200001F4, 0x2 Bytes, ...)
T4504 17379:119.104    -- Read from C cache (2 bytes @ 0x200001F4)
T4504 17379:119.104   Data:  43 00
T4504 17379:119.104 - 0.023ms returns 0
T4504 17379:119.104 JLINK_ReadMem(0x200001F6, 0x2 Bytes, ...)
T4504 17379:121.152    -- Read from C cache (2 bytes @ 0x200001F6)
T4504 17379:121.152   Data:  00 00
T4504 17379:121.152 - 0.023ms returns 0
T4504 17379:121.152 JLINK_ReadMem(0x200001F8, 0x2 Bytes, ...)
T4504 17379:121.152    -- Read from C cache (2 bytes @ 0x200001F8)
T4504 17379:121.152   Data:  00 00
T4504 17379:121.152 - 0.023ms returns 0
T4504 17379:121.152 JLINK_ReadMem(0x200001FA, 0x2 Bytes, ...)
T4504 17379:121.152    -- Read from C cache (2 bytes @ 0x200001FA)
T4504 17379:121.152   Data:  00 00
T4504 17379:121.152 - 0.028ms returns 0
T4504 17379:121.152 JLINK_ReadMem(0x200001FC, 0x2 Bytes, ...)
T4504 17379:121.152    -- Read from C cache (2 bytes @ 0x200001FC)
T4504 17379:121.152   Data:  00 00
T4504 17379:121.152 - 0.023ms returns 0
T4504 17379:121.152 JLINK_ReadMem(0x200001FE, 0x2 Bytes, ...)
T4504 17379:121.152    -- Read from C cache (2 bytes @ 0x200001FE)
T4504 17379:121.152   Data:  00 00
T4504 17379:121.152 - 0.027ms returns 0
T4504 17379:121.152 JLINK_ReadMem(0x20000200, 0x2 Bytes, ...)
T4504 17379:121.152   CPU_ReadMem(64 bytes @ 0x20000200)
T4504 17379:123.200    -- Updating C cache (64 bytes @ 0x20000200)
T4504 17379:123.200    -- Read from C cache (2 bytes @ 0x20000200)
T4504 17379:123.200   Data:  00 00
T4504 17379:123.200 - 1.157ms returns 0
T4504 17379:123.200 JLINK_ReadMem(0x20000202, 0x2 Bytes, ...)
T4504 17379:123.200    -- Read from C cache (2 bytes @ 0x20000202)
T4504 17379:123.200   Data:  00 00
T4504 17379:123.200 - 0.023ms returns 0
T4504 17379:123.200 JLINK_ReadMem(0x20000204, 0x2 Bytes, ...)
T4504 17379:123.200    -- Read from C cache (2 bytes @ 0x20000204)
T4504 17379:123.200   Data:  00 00
T4504 17379:123.200 - 0.023ms returns 0
T4504 17379:123.200 JLINK_ReadMem(0x20000206, 0x2 Bytes, ...)
T4504 17379:123.200    -- Read from C cache (2 bytes @ 0x20000206)
T4504 17379:123.200   Data:  00 00
T4504 17379:123.200 - 0.023ms returns 0
T4504 17379:123.200 JLINK_ReadMem(0x20000340, 0x4 Bytes, ...)
T4504 17379:123.200    -- Read from C cache (4 bytes @ 0x20000340)
T4504 17379:123.200   Data:  00 00 00 00
T4504 17379:123.200 - 0.023ms returns 0
T4504 17379:123.200 JLINK_ReadMem(0x200001C8, 0x2 Bytes, ...)
T4504 17379:123.200    -- Read from C cache (2 bytes @ 0x200001C8)
T4504 17379:123.200   Data:  00 00
